TF6BD0F40 000:002.653   SEGGER J-Link V8.44a Log File
TF6BD0F40 000:002.890   DLL Compiled: Jun 18 2025 16:32:45
TF6BD0F40 000:002.894   Logging started @ 2025-08-12 00:55
TF6BD0F40 000:002.898   Process: /Users/kim_kyoungkun/.eclipse/com.renesas.platform_589702750/DebugComp/RA/e2-server-gdb
TF6BD0F40 000:002.902 - 2.901ms 
TF6BD0F40 000:002.908 JLINK_GetDLLVersion()
TF6BD0F40 000:002.911 - 0.004ms returns 84401
TF6BD0F40 000:007.539 JLINK_OpenEx(...)
TF6BD0F40 000:013.840   Firmware: J-Link OB-RA4M2 compiled Apr  1 2025 10:13:55
TF6BD0F40 000:016.984   Firmware: J-Link OB-RA4M2 compiled Apr  1 2025 10:13:55
TF6BD0F40 000:033.337   Hardware: V1.00
TF6BD0F40 000:033.344   S/N: 1088685994
TF6BD0F40 000:033.349   OEM: SEGGER
TF6BD0F40 000:033.354   Feature(s): None
TF6BD0F40 000:036.160   Bootloader: 2021 May 14
TF6BD0F40 000:038.121   USB speed mode: Full speed (12 MBit/s)
TF6BD0F40 000:040.096   TELNET listener socket opened on port 19021
TF6BD0F40 000:040.129   WEBSRV WEBSRV_Init(): Starting webserver thread(s)
TF6BD0F40 000:040.153   WEBSRV Failed to put socket into listener state (port 19080)
TF6BD0F40 000:040.174   WEBSRV Webserver running on local port 19081
TF6BD0F40 000:040.185   Looking for J-Link GUI Server exe at: /Users/kim_kyoungkun/.eclipse/com.renesas.platform_589702750/DebugComp/RA/ARM/Segger_v8.44.1/JLinkGUIServerExe
TF6BD0F40 000:040.199   Looking for J-Link GUI Server exe at: /Applications/SEGGER/JLink/JLinkGUIServerExe
TF6BD0F40 000:040.224   Forking J-Link GUI Server: /Applications/SEGGER/JLink/JLinkGUIServerExe
TF6BD0F40 000:041.562   J-Link GUI Server info: "J-Link GUI server V8.44 "
TF6BD0F40 000:041.995 - 34.457ms returns "O.K."
TF6BD0F40 000:042.031 JLINK_TIF_Select(JLINKARM_TIF_SWD)
TF6BD0F40 000:047.632 - 5.601ms returns 0x00
TF6BD0F40 000:047.664 JLINK_ClrRESET()
TF6BD0F40 000:084.732 - 37.067ms 
TF6BD0F40 000:138.925 JLINK_SetSpeed(1500)
TF6BD0F40 000:139.761 - 0.837ms 
TF6BD0F40 000:139.778 JLINK_CORESIGHT_Configure(PerformTIFInit=0)
TF6BD0F40 000:141.116 - 1.337ms returns 0
TF6BD0F40 000:141.130 JLINK_CORESIGHT_ReadAPDPReg(DP reg 0x00)
TF6BD0F40 000:141.586   Value=0x6BA02477
TF6BD0F40 000:141.596 - 0.466ms returns 0
TF6BD0F40 000:141.608 JLINK_CORESIGHT_WriteAPDPReg(DP reg 0x00, 0x0000001F)
TF6BD0F40 000:142.392 - 0.784ms returns 0
TF6BD0F40 000:142.407 JLINK_CORESIGHT_ReadAPDPReg(DP reg 0x00)
TF6BD0F40 000:143.155   Value=0x6BA02477
TF6BD0F40 000:143.166 - 0.760ms returns 0
TF6BD0F40 000:143.177 JLINK_CORESIGHT_WriteAPDPReg(DP reg 0x02, 0x00000000)
TF6BD0F40 000:144.654 - 1.476ms returns 0
TF6BD0F40 000:144.671 JLINK_CORESIGHT_WriteAPDPReg(DP reg 0x01, 0x50000000)
TF6BD0F40 000:144.977 - 0.306ms returns 0
TF6BD0F40 000:144.997 JLINK_CORESIGHT_ReadAPDPReg(DP reg 0x01)
TF6BD0F40 000:145.308   Value=0xF0000000
TF6BD0F40 000:145.318 - 0.321ms returns 0
TF6BD0F40 000:145.338 JLINK_CORESIGHT_WriteAPDPReg(DP reg 0x00, 0x0000001F)
TF6BD0F40 000:145.624 - 0.286ms returns 0
TF6BD0F40 000:145.639 JLINK_CORESIGHT_ReadAPDPReg(DP reg 0x00)
TF6BD0F40 000:146.005   Value=0x6BA02477
TF6BD0F40 000:146.014 - 0.375ms returns 0
TF6BD0F40 000:146.027 JLINK_CORESIGHT_WriteAPDPReg(DP reg 0x01, 0x54000000)
TF6BD0F40 000:146.394 - 0.367ms returns 0
TF6BD0F40 000:146.406 JLINK_CORESIGHT_WriteAPDPReg(DP reg 0x01, 0x50000F00)
TF6BD0F40 000:146.771 - 0.365ms returns 0
TF6BD0F40 000:146.784 JLINK_CORESIGHT_WriteAPDPReg(DP reg 0x02, 0x01000000)
TF6BD0F40 000:147.177 - 0.393ms returns 0
TF6BD0F40 000:147.189 JLINK_CORESIGHT_WriteAPDPReg(AP reg 0x00, 0x80000002)
TF6BD0F40 000:147.731 - 0.542ms returns 0
TF6BD0F40 000:147.744 JLINK_CORESIGHT_WriteAPDPReg(AP reg 0x01, 0x80011100)
TF6BD0F40 000:148.113 - 0.369ms returns 0
TF6BD0F40 000:148.126 JLINK_CORESIGHT_WriteAPDPReg(AP reg 0x03, 0x000000A5)
TF6BD0F40 000:148.500 - 0.374ms returns 0
TF6BD0F40 000:148.513 JLINK_CORESIGHT_WriteAPDPReg(AP reg 0x00, 0x80000002)
TF6BD0F40 000:148.898 - 0.385ms returns 0
TF6BD0F40 000:148.910 JLINK_CORESIGHT_WriteAPDPReg(AP reg 0x01, 0x80011100)
TF6BD0F40 000:149.289 - 0.379ms returns 0
TF6BD0F40 000:149.321 JLINK_CORESIGHT_ReadAPDPReg(AP reg 0x03)
TF6BD0F40 000:149.736   Value=0x000000A5
TF6BD0F40 000:149.745 - 0.424ms returns 0
TF6BD0F40 000:149.758 JLINK_ClrTMS()
TF6BD0F40 000:149.963 - 0.204ms 
TF6BD0F40 000:156.135 JLINK_SetTCK()
TF6BD0F40 000:156.478 - 0.343ms returns 0
TF6BD0F40 000:162.653 JLINK_SetRESET()
TF6BD0F40 000:163.041 - 0.388ms 
TF6BD0F40 000:364.830 JLINK_CORESIGHT_WriteAPDPReg(AP reg 0x00, 0x80000002)
TF6BD0F40 000:365.939 - 1.112ms returns 0
TF6BD0F40 000:365.974 JLINK_CORESIGHT_WriteAPDPReg(AP reg 0x01, 0x80011100)
TF6BD0F40 000:366.332 - 0.358ms returns 0
TF6BD0F40 000:366.408 JLINK_CORESIGHT_ReadAPDPReg(AP reg 0x03)
TF6BD0F40 000:366.866   failed
TF6BD0F40 000:366.904 - 0.497ms returns -1
TF6BD0F40 000:367.118 JLINK_ClrRESET()
TF6BD0F40 000:367.528 - 0.410ms 
TF6BD0F40 000:421.705 JLINK_SetSpeed(1500)
TF6BD0F40 000:422.386 - 0.683ms 
TF6BD0F40 000:422.421 JLINK_CORESIGHT_Configure(PerformTIFInit=0)
TF6BD0F40 000:423.155 - 0.733ms returns 0
TF6BD0F40 000:423.186 JLINK_CORESIGHT_ReadAPDPReg(DP reg 0x00)
TF6BD0F40 000:423.534   Value=0x6BA02477
TF6BD0F40 000:423.569 - 0.383ms returns 0
TF6BD0F40 000:423.598 JLINK_CORESIGHT_WriteAPDPReg(DP reg 0x00, 0x0000001F)
TF6BD0F40 000:423.936 - 0.338ms returns 0
TF6BD0F40 000:423.967 JLINK_CORESIGHT_ReadAPDPReg(DP reg 0x00)
TF6BD0F40 000:424.301   Value=0x6BA02477
TF6BD0F40 000:424.327 - 0.360ms returns 0
TF6BD0F40 000:424.351 JLINK_CORESIGHT_WriteAPDPReg(DP reg 0x02, 0x00000000)
TF6BD0F40 000:424.682 - 0.331ms returns 0
TF6BD0F40 000:424.712 JLINK_CORESIGHT_WriteAPDPReg(DP reg 0x01, 0x50000000)
TF6BD0F40 000:425.107 - 0.396ms returns 0
TF6BD0F40 000:425.140 JLINK_CORESIGHT_ReadAPDPReg(DP reg 0x01)
TF6BD0F40 000:426.971   Value=0xF0000000
TF6BD0F40 000:427.004 - 1.863ms returns 0
TF6BD0F40 000:427.029 JLINK_CORESIGHT_WriteAPDPReg(DP reg 0x00, 0x0000001F)
TF6BD0F40 000:427.361 - 0.332ms returns 0
TF6BD0F40 000:427.394 JLINK_CORESIGHT_ReadAPDPReg(DP reg 0x00)
TF6BD0F40 000:427.743   Value=0x6BA02477
TF6BD0F40 000:427.769 - 0.374ms returns 0
TF6BD0F40 000:427.791 JLINK_CORESIGHT_WriteAPDPReg(DP reg 0x01, 0x54000000)
TF6BD0F40 000:428.150 - 0.359ms returns 0
TF6BD0F40 000:428.180 JLINK_CORESIGHT_WriteAPDPReg(DP reg 0x01, 0x50000F00)
TF6BD0F40 000:428.556 - 0.375ms returns 0
TF6BD0F40 000:428.586 JLINK_CORESIGHT_WriteAPDPReg(DP reg 0x02, 0x01000000)
TF6BD0F40 000:428.916 - 0.330ms returns 0
TF6BD0F40 000:428.959 JLINK_CORESIGHT_WriteAPDPReg(AP reg 0x00, 0x80000002)
TF6BD0F40 000:429.325 - 0.365ms returns 0
TF6BD0F40 000:429.356 JLINK_CORESIGHT_WriteAPDPReg(AP reg 0x01, 0x80011100)
TF6BD0F40 000:429.694 - 0.338ms returns 0
TF6BD0F40 000:429.725 JLINK_CORESIGHT_WriteAPDPReg(AP reg 0x03, 0x000000A5)
TF6BD0F40 000:430.044 - 0.319ms returns 0
TF6BD0F40 000:430.076 JLINK_CORESIGHT_WriteAPDPReg(AP reg 0x00, 0x80000002)
TF6BD0F40 000:430.411 - 0.334ms returns 0
TF6BD0F40 000:430.440 JLINK_CORESIGHT_WriteAPDPReg(AP reg 0x01, 0x80011100)
TF6BD0F40 000:430.792 - 0.352ms returns 0
TF6BD0F40 000:430.822 JLINK_CORESIGHT_ReadAPDPReg(AP reg 0x03)
TF6BD0F40 000:431.219   Value=0x000000A5
TF6BD0F40 000:431.246 - 0.424ms returns 0
TF6BD0F40 000:431.272 JLINK_ClrTMS()
TF6BD0F40 000:431.463 - 0.190ms 
TF6BD0F40 000:437.667 JLINK_SetTCK()
TF6BD0F40 000:438.228 - 0.560ms returns 0
TF6BD0F40 000:444.250 JLINK_SetRESET()
TF6BD0F40 000:445.188 - 0.939ms 
TF6BD0F40 000:645.860 JLINK_CORESIGHT_WriteAPDPReg(AP reg 0x00, 0x80000002)
TF6BD0F40 000:646.507 - 0.649ms returns 0
TF6BD0F40 000:646.529 JLINK_CORESIGHT_WriteAPDPReg(AP reg 0x01, 0x80011100)
TF6BD0F40 000:646.839 - 0.310ms returns 0
TF6BD0F40 000:646.853 JLINK_CORESIGHT_ReadAPDPReg(AP reg 0x03)
TF6BD0F40 000:647.245   failed
TF6BD0F40 000:647.253 - 0.401ms returns -1
TF6BD0F40 000:647.471 JLINK_CORESIGHT_ReadAPDPReg(DP reg 0x01)
TF6BD0F40 000:647.772   Value=0xF0000F00
TF6BD0F40 000:647.781 - 0.310ms returns 0
TF6BD0F40 000:647.791 JLINK_CORESIGHT_WriteAPDPReg(DP reg 0x01, 0xA0000F00)
TF6BD0F40 000:648.098 - 0.307ms returns 0
TF6BD0F40 000:648.112 JLINK_CORESIGHT_ReadAPDPReg(DP reg 0x01)
TF6BD0F40 000:648.464   Value=0x00000F00
TF6BD0F40 000:648.474 - 0.362ms returns 0
TF6BD0F40 000:648.487 JLINK_ClrRESET()
TF6BD0F40 000:648.883 - 0.395ms 
TF6BD0F40 000:752.965 JLINK_Close()
TF6BD0F40 000:756.211 - 3.246ms
TF6BD0F40 000:756.389   
TF6BD0F40 000:756.401   Closed
